Circuit: * Z:\non-work-projects\dummy-load\ltspice\LM334\LM334_test.asc

Direct Newton iteration for .op point succeeded.
Semiconductor Device Operating Points:
                        --- Diodes ---
Name:      d1
Model:   1n4148
Id:      1.26e-04
Vd:      4.90e-01
Req:     3.59e+02
CAP:     6.09e-11

                        --- Bipolar Transistors ---
Name:     q:u1:4      q:u1:5      q:u1:6      q:u1:1      q:u1:2
Model:    u1:pnp1     u1:pnp1     u1:pnp1     u1:npn1     u1:npn1
Ib:      -5.71e-06   -6.57e-07   -3.43e-06    1.02e-07    2.17e-08
Ic:      -9.94e-06   -2.04e-05   -3.43e-04    2.03e-05    4.34e-06
Vbe:     -6.15e-01   -6.15e-01   -6.15e-01    5.50e-01    5.74e-01
Vbc:     -5.81e-01   -5.15e-01    3.46e-02    0.00e+00   -6.56e-02
Vce:     -3.48e-02   -1.00e-01   -6.50e-01    5.50e-01    6.40e-01
BetaDC:   1.74e+00    3.11e+01    1.00e+02    2.00e+02    2.00e+02
Gm:       5.97e-04    8.07e-04    1.33e-02    7.85e-04    1.68e-04
Rpi:      1.23e+05    1.21e+05    7.54e+03    2.55e+05    1.19e+06
Rx:       1.00e+02    1.00e+02    6.25e+00    8.33e+00    1.00e+02
Ro:       4.73e+03    5.80e+04    2.91e+05    4.93e+06    2.31e+07
Cbe:      8.23e-11    8.39e-11    1.35e-09    1.82e-11    1.64e-12
Cbc:      7.42e-13    7.06e-13    7.88e-12    6.00e-12    4.86e-13
Cjs:      0.00e+00    0.00e+00    0.00e+00    0.00e+00    0.00e+00
BetaAC:   7.34e+01    9.74e+01    1.00e+02    2.00e+02    2.00e+02
Cbx:      0.00e+00    0.00e+00    0.00e+00    0.00e+00    0.00e+00
Ft:       1.14e+06    1.52e+06    1.55e+06    5.16e+06    1.25e+07

Name:     q:u1:3
Model:    u1:npn1
Ib:       5.60e-06
Ic:       9.80e-06
Vbe:      6.15e-01
Vbc:      5.81e-01
Vce:      3.46e-02
BetaDC:   1.75e+00
Gm:       5.91e-04
Rpi:      2.48e+05
Rx:       1.00e+02
Ro:       4.73e+03
Cbe:      2.32e-12
Cbc:      7.42e-13
Cjs:      0.00e+00
BetaAC:   1.46e+02
Cbx:      0.00e+00
Ft:       3.07e+07



Date: Thu Aug 10 15:40:54 2023
Total elapsed time: 0.738 seconds.

tnom = 27
temp = 77
method = trap
totiter = 14
traniter = 0
tranpoints = 0
accept = 0
rejected = 0
matrix size = 22
fillins = 14
solver = Normal
Avg thread counts: 2.0/0.0/2.0/2.0
Matrix Compiler1: 3.26 KB object code size
Matrix Compiler2: 2.46 KB object code size
